
T264C 000:419 SEGGER J-Link V4.96d Log File (0001ms, 0279ms total)
T264C 000:419 DLL Compiled: Jan 29 2015 11:45:37 (0001ms, 0279ms total)
T264C 000:419 Logging started @ 2024-01-29 13:02 (0001ms, 0279ms total)
T264C 000:420 JLINK_SetWarnOutHandler(...) (0000ms, 0279ms total)
T264C 000:420 JLINK_OpenEx(...)
Firmware: J-Link V9 compiled Apr 20 2018 16:47:26
Hardware: V9.70
S/N: 59700618
Feature(s): RDI, FlashBP, FlashDL, JFlash, GDB  returns O.K. (0277ms, 0556ms total)
T264C 000:697 JLINK_SetErrorOutHandler(...) (0000ms, 0556ms total)
T264C 000:697 JLINK_ExecCommand("ProjectFile = "D:\单片机\FD-CNMR-D 型连续波核磁共振实验仪\软件\JLinkSettings.ini"", ...)  returns 0x00 (0002ms, 0558ms total)
T264C 000:715 JLINK_ExecCommand("Device = STM32F103C8", ...)Device "STM32F103C8" selected.  returns 0x00 (0023ms, 0581ms total)
T264C 000:738 JLINK_ExecCommand("DisableConnectionTimeout", ...)  returns 0x01 (0000ms, 0581ms total)
T264C 000:738 JLINK_GetHardwareVersion()  returns 0x17AE8 (0000ms, 0581ms total)
T264C 000:738 JLINK_GetDLLVersion()  returns 49604 (0000ms, 0581ms total)
T264C 000:738 JLINK_GetFirmwareString(...) (0000ms, 0581ms total)
T264C 000:769 JLINK_GetDLLVersion()  returns 49604 (0000ms, 0581ms total)
T264C 000:769 JLINK_GetCompileDateTime() (0000ms, 0581ms total)
T264C 000:775 JLINK_GetFirmwareString(...) (0000ms, 0581ms total)
T264C 000:781 JLINK_GetHardwareVersion()  returns 0x17AE8 (0000ms, 0581ms total)
T264C 000:801 JLINK_TIF_Select(JLINKARM_TIF_SWD)  returns 0x00 (0001ms, 0582ms total)
T264C 000:802 JLINK_SetSpeed(2000) (0000ms, 0582ms total)
T264C 000:802 JLINK_GetId() >0x108 TIF>Found SWD-DP with ID 0x1BA01477 >0x0D TIF> >0x28 TIF> >0x0D TIF> >0x28 TIF> >0x0D TIF> >0x21 TIF> >0x0D TIF> >0x28 TIF> >0x0D TIF> >0x28 TIF> >0x0D TIF> >0x28 TIF> >0x0D TIF> >0x21 TIF> >0x0D TIF> >0x21 TIF> >0x0D TIF> >0x28 TIF> >0x0D TIF> >0x21 TIF> >0x0D TIF> >0x21 TIF> >0x108 TIF>Found SWD-DP with ID 0x1BA01477 >0x0D TIF> >0x21 TIF> >0x0D TIF> >0x28 TIF> >0x0D TIF> >0x28 TIF> >0x0D TIF> >0x21 TIF> >0x0D TIF> >0x28 TIF> >0x0D TIF> >0x21 TIF> >0x0D TIF> >0x21 TIF>
 >0x0D TIF> >0x21 TIF> >0x0D TIF> >0x21 TIF> >0x0D TIF> >0x28 TIF> >0x0D TIF> >0x28 TIF> >0x0D TIF> >0x21 TIF> >0x0D TIF> >0x28 TIF> >0x0D TIF> >0x28 TIF> >0x0D TIF> >0x28 TIF> >0x0D TIF> >0x21 TIF> >0x0D TIF> >0x21 TIF> >0x0D TIF> >0x28 TIF> >0x0D TIF> >0x21 TIF> >0x0D TIF> >0x21 TIF>Found Cortex-M3 r1p1, Little endian. -- CPU_WriteMem(4 bytes @ 0xE0002000) -- CPU_ReadMem(4 bytes @ 0xE000EDF0) -- CPU_ReadMem(4 bytes @ 0xE0002000)FPUnit: 6 code (BP) slots and 2 literal slots
 -- CPU_ReadMem(4 bytes @ 0xE000EDFC) -- CPU_ReadMem(4 bytes @ 0xE0001000) -- CPU_WriteMem(4 bytes @ 0xE0001000) -- CPU_ReadMem(4 bytes @ 0xE000ED88) -- CPU_WriteMem(4 bytes @ 0xE000ED88) -- CPU_ReadMem(4 bytes @ 0xE000ED88) -- CPU_WriteMem(4 bytes @ 0xE000ED88) -- CPU_ReadMem(4 bytes @ 0xE00FF010)TPIU fitted. -- CPU_ReadMem(4 bytes @ 0xE00FF014) -- CPU_ReadMem(4 bytes @ 0xE00FF018) >0x0D TIF> >0x21 TIF>  returns 0x1BA01477 (0051ms, 0633ms total)
T264C 000:853 JLINK_GetDLLVersion()  returns 49604 (0000ms, 0633ms total)
T264C 000:853 JLINK_CORE_GetFound()  returns 0x30000FF (0000ms, 0633ms total)
T264C 000:853 JLINK_GetDebugInfo(0x100) -- Value=0xE00FF003  returns 0x00 (0000ms, 0633ms total)
T264C 000:855 JLINK_ReadMem (0xE00FF000, 0x0020 Bytes, ...) -- CPU is running -- CPU_ReadMem(32 bytes @ 0xE00FF000) - Data: 03 F0 F0 FF 03 20 F0 FF 03 30 F0 FF 03 10 F0 FF ...  returns 0x00 (0001ms, 0634ms total)
T264C 000:856 JLINK_ReadMem (0xE000EFF0, 0x0010 Bytes, ...) -- CPU is running -- CPU_ReadMem(16 bytes @ 0xE000EFF0) - Data: 0D 00 00 00 E0 00 00 00 05 00 00 00 B1 00 00 00  returns 0x00 (0002ms, 0636ms total)
T264C 000:858 JLINK_ReadMem (0xE000EFD0, 0x0020 Bytes, ...) -- CPU is running -- CPU_ReadMem(32 bytes @ 0xE000EFD0) - Data: 04 00 00 00 00 00 00 00 00 00 00 00 00 00 00 00 ...  returns 0x00 (0000ms, 0636ms total)
T264C 000:858 JLINK_ReadMem (0xE0001FF0, 0x0010 Bytes, ...) -- CPU is running -- CPU_ReadMem(16 bytes @ 0xE0001FF0) - Data: 0D 00 00 00 E0 00 00 00 05 00 00 00 B1 00 00 00  returns 0x00 (0001ms, 0637ms total)
T264C 000:859 JLINK_ReadMem (0xE0001FD0, 0x0020 Bytes, ...) -- CPU is running -- CPU_ReadMem(32 bytes @ 0xE0001FD0) - Data: 04 00 00 00 00 00 00 00 00 00 00 00 00 00 00 00 ...  returns 0x00 (0000ms, 0637ms total)
T264C 000:859 JLINK_ReadMem (0xE0002FF0, 0x0010 Bytes, ...) -- CPU is running -- CPU_ReadMem(16 bytes @ 0xE0002FF0) - Data: 0D 00 00 00 E0 00 00 00 05 00 00 00 B1 00 00 00  returns 0x00 (0000ms, 0637ms total)
T264C 000:859 JLINK_ReadMem (0xE0002FD0, 0x0020 Bytes, ...) -- CPU is running -- CPU_ReadMem(32 bytes @ 0xE0002FD0) - Data: 04 00 00 00 00 00 00 00 00 00 00 00 00 00 00 00 ...  returns 0x00 (0001ms, 0638ms total)
T264C 000:860 JLINK_ReadMem (0xE0000FF0, 0x0010 Bytes, ...) -- CPU is running -- CPU_ReadMem(16 bytes @ 0xE0000FF0) - Data: 0D 00 00 00 E0 00 00 00 05 00 00 00 B1 00 00 00  returns 0x00 (0000ms, 0638ms total)
T264C 000:860 JLINK_ReadMem (0xE0000FD0, 0x0020 Bytes, ...) -- CPU is running -- CPU_ReadMem(32 bytes @ 0xE0000FD0) - Data: 04 00 00 00 00 00 00 00 00 00 00 00 00 00 00 00 ...  returns 0x00 (0001ms, 0639ms total)
T264C 000:861 JLINK_ReadMem (0xE0040FF0, 0x0010 Bytes, ...) -- CPU is running -- CPU_ReadMem(16 bytes @ 0xE0040FF0) - Data: 0D 00 00 00 90 00 00 00 05 00 00 00 B1 00 00 00  returns 0x00 (0001ms, 0640ms total)
T264C 000:862 JLINK_ReadMem (0xE0040FD0, 0x0020 Bytes, ...) -- CPU is running -- CPU_ReadMem(32 bytes @ 0xE0040FD0) - Data: 04 00 00 00 00 00 00 00 00 00 00 00 00 00 00 00 ...  returns 0x00 (0000ms, 0640ms total)
T264C 000:862 JLINK_ReadMemU32(0xE000ED00, 0x0001 Items, ...) -- CPU is running -- CPU_ReadMem(4 bytes @ 0xE000ED00) - Data: 31 C2 1F 41  returns 0x01 (0002ms, 0642ms total)
T264C 000:864 JLINK_SetResetType(JLINKARM_RESET_TYPE_NORMAL)  returns JLINKARM_RESET_TYPE_NORMAL (0000ms, 0642ms total)
T264C 000:864 JLINK_Reset() -- CPU is running -- CPU_WriteMem(4 bytes @ 0xE000EDF0) -- CPU is running -- CPU_WriteMem(4 bytes @ 0xE000EDFC) >0x35 TIF> -- CPU is running -- CPU_WriteMem(4 bytes @ 0xE000ED0C) -- CPU is running -- CPU_ReadMem(4 bytes @ 0xE000EDF0) -- CPU is running -- CPU_ReadMem(4 bytes @ 0xE000EDF0) -- CPU is running -- CPU_WriteMem(4 bytes @ 0xE000EDF0) -- CPU is running -- CPU_WriteMem(4 bytes @ 0xE000EDFC) -- CPU is running -- CPU_ReadMem(4 bytes @ 0xE000EDF0)
 -- CPU_WriteMem(4 bytes @ 0xE0002000) -- CPU_ReadMem(4 bytes @ 0xE000EDFC) -- CPU_ReadMem(4 bytes @ 0xE0001000) (0019ms, 0661ms total)
T264C 000:883 JLINK_Halt()  returns 0x00 (0000ms, 0661ms total)
T264C 000:883 JLINK_IsHalted()  returns TRUE (0000ms, 0661ms total)
T264C 000:883 JLINK_ReadMemU32(0xE000EDF0, 0x0001 Items, ...) -- CPU_ReadMem(4 bytes @ 0xE000EDF0) - Data: 03 00 03 00  returns 0x01 (0000ms, 0661ms total)
T264C 000:883 JLINK_WriteU32(0xE000EDF0, 0xA05F0003) -- CPU_WriteMem(4 bytes @ 0xE000EDF0)  returns 0x00 (0000ms, 0661ms total)
T264C 000:883 JLINK_WriteU32(0xE000EDFC, 0x01000000) -- CPU_WriteMem(4 bytes @ 0xE000EDFC)  returns 0x00 (0001ms, 0662ms total)
T264C 000:895 JLINK_GetHWStatus(...)  returns 0x00 (0001ms, 0663ms total)
T264C 000:902 JLINK_GetNumBPUnits(Type = 0xFFFFFF00)  returns 0x06 (0000ms, 0663ms total)
T264C 000:902 JLINK_GetNumBPUnits(Type = 0xF0)  returns 0x2000 (0000ms, 0663ms total)
T264C 000:902 JLINK_GetNumWPUnits()  returns 0x04 (0000ms, 0663ms total)
T264C 000:911 JLINK_GetSpeed()  returns 0x7D0 (0000ms, 0663ms total)
T264C 000:916 JLINK_ReadMemU32(0xE000E004, 0x0001 Items, ...) -- CPU_ReadMem(4 bytes @ 0xE000E004) - Data: 01 00 00 00  returns 0x01 (0001ms, 0664ms total)
T264C 000:917 JLINK_ReadMemU32(0xE000E004, 0x0001 Items, ...) -- CPU_ReadMem(4 bytes @ 0xE000E004) - Data: 01 00 00 00  returns 0x01 (0000ms, 0664ms total)
T264C 000:917 JLINK_WriteMem(0xE0001000, 0x001C Bytes, ...) - Data: 01 00 00 00 00 00 00 00 00 00 00 00 00 00 00 00 ... -- CPU_WriteMem(28 bytes @ 0xE0001000)  returns 0x1C (0002ms, 0666ms total)
T264C 000:919 JLINK_ReadMem (0xE0001000, 0x001C Bytes, ...) -- CPU_ReadMem(28 bytes @ 0xE0001000) - Data: 01 00 00 40 00 00 00 00 00 00 00 00 00 00 00 00 ...  returns 0x00 (0001ms, 0667ms total)
T264C 000:920 JLINK_Halt()  returns 0x00 (0000ms, 0667ms total)
T264C 000:920 JLINK_IsHalted()  returns TRUE (0000ms, 0667ms total)
T264C 000:923 JLINK_WriteMem(0x20000000, 0x0164 Bytes, ...) - Data: 00 BE 0A E0 0D 78 2D 06 68 40 08 24 40 00 00 D3 ... -- CPU_WriteMem(356 bytes @ 0x20000000)  returns 0x164 (0005ms, 0672ms total)
T264C 000:928 JLINK_WriteReg(R0, 0x08000000)  returns 0x00 (0000ms, 0672ms total)
T264C 000:928 JLINK_WriteReg(R1, 0x00B71B00)  returns 0x00 (0000ms, 0672ms total)
T264C 000:928 JLINK_WriteReg(R2, 0x00000001)  returns 0x00 (0000ms, 0672ms total)
T264C 000:928 JLINK_WriteReg(R3, 0x00000000)  returns 0x00 (0000ms, 0672ms total)
T264C 000:928 JLINK_WriteReg(R4, 0x00000000)  returns 0x00 (0000ms, 0672ms total)
T264C 000:928 JLINK_WriteReg(R5, 0x00000000)  returns 0x00 (0000ms, 0672ms total)
T264C 000:928 JLINK_WriteReg(R6, 0x00000000)  returns 0x00 (0000ms, 0672ms total)
T264C 000:928 JLINK_WriteReg(R7, 0x00000000)  returns 0x00 (0000ms, 0672ms total)
T264C 000:928 JLINK_WriteReg(R8, 0x00000000)  returns 0x00 (0000ms, 0672ms total)
T264C 000:928 JLINK_WriteReg(R9, 0x20000160)  returns 0x00 (0000ms, 0672ms total)
T264C 000:928 JLINK_WriteReg(R10, 0x00000000)  returns 0x00 (0000ms, 0672ms total)
T264C 000:928 JLINK_WriteReg(R11, 0x00000000)  returns 0x00 (0000ms, 0672ms total)
T264C 000:928 JLINK_WriteReg(R12, 0x00000000)  returns 0x00 (0000ms, 0672ms total)
T264C 000:928 JLINK_WriteReg(R13 (SP), 0x20001000)  returns 0x00 (0000ms, 0672ms total)
T264C 000:928 JLINK_WriteReg(R14, 0x20000001)  returns 0x00 (0000ms, 0672ms total)
T264C 000:928 JLINK_WriteReg(R15 (PC), 0x20000038)  returns 0x00 (0000ms, 0672ms total)
T264C 000:928 JLINK_WriteReg(XPSR, 0x01000000)  returns 0x00 (0000ms, 0672ms total)
T264C 000:928 JLINK_WriteReg(MSP, 0x20001000)  returns 0x00 (0000ms, 0672ms total)
T264C 000:928 JLINK_WriteReg(PSP, 0x20001000)  returns 0x00 (0000ms, 0672ms total)
T264C 000:928 JLINK_WriteReg(CFBP, 0x00000000)  returns 0x00 (0000ms, 0672ms total)
T264C 000:928 JLINK_SetBPEx(Addr = 0x20000000, Type = 0xFFFFFFF2) -- CPU_ReadMem(2 bytes @ 0x20000000)  returns 0x00000001 (0001ms, 0673ms total)
T264C 000:929 JLINK_Go() -- CPU_WriteMem(2 bytes @ 0x20000000) -- CPU_WriteMem(4 bytes @ 0xE0002008) -- CPU_WriteMem(4 bytes @ 0xE000200C) -- CPU_WriteMem(4 bytes @ 0xE0002010) -- CPU_WriteMem(4 bytes @ 0xE0002014) -- CPU_WriteMem(4 bytes @ 0xE0002018) -- CPU_WriteMem(4 bytes @ 0xE000201C) -- CPU_WriteMem(4 bytes @ 0xE0001004) (0006ms, 0679ms total)
T264C 000:935 JLINK_IsHalted() -- CPU_ReadMem(2 bytes @ 0x20000000)  returns TRUE (0004ms, 0683ms total)
T264C 000:939 JLINK_ReadReg(R15 (PC))  returns 0x20000000 (0000ms, 0679ms total)
T264C 000:939 JLINK_ClrBPEx(BPHandle = 0x00000001)  returns 0x00 (0000ms, 0679ms total)
T264C 000:939 JLINK_ReadReg(R0)  returns 0x00000000 (0000ms, 0679ms total)
T264C 000:940 JLINK_WriteReg(R0, 0x08000000)  returns 0x00 (0000ms, 0679ms total)
T264C 000:940 JLINK_WriteReg(R1, 0x00B71B00)  returns 0x00 (0000ms, 0679ms total)
T264C 000:940 JLINK_WriteReg(R2, 0x00000001)  returns 0x00 (0000ms, 0679ms total)
T264C 000:940 JLINK_WriteReg(R3, 0x00000000)  returns 0x00 (0000ms, 0679ms total)
T264C 000:940 JLINK_WriteReg(R4, 0x00000000)  returns 0x00 (0000ms, 0679ms total)
T264C 000:940 JLINK_WriteReg(R5, 0x00000000)  returns 0x00 (0000ms, 0679ms total)
T264C 000:940 JLINK_WriteReg(R6, 0x00000000)  returns 0x00 (0000ms, 0679ms total)
T264C 000:940 JLINK_WriteReg(R7, 0x00000000)  returns 0x00 (0000ms, 0679ms total)
T264C 000:940 JLINK_WriteReg(R8, 0x00000000)  returns 0x00 (0000ms, 0679ms total)
T264C 000:940 JLINK_WriteReg(R9, 0x20000160)  returns 0x00 (0000ms, 0679ms total)
T264C 000:940 JLINK_WriteReg(R10, 0x00000000)  returns 0x00 (0000ms, 0679ms total)
T264C 000:940 JLINK_WriteReg(R11, 0x00000000)  returns 0x00 (0000ms, 0679ms total)
T264C 000:940 JLINK_WriteReg(R12, 0x00000000)  returns 0x00 (0000ms, 0679ms total)
T264C 000:940 JLINK_WriteReg(R13 (SP), 0x20001000)  returns 0x00 (0000ms, 0679ms total)
T264C 000:940 JLINK_WriteReg(R14, 0x20000001)  returns 0x00 (0000ms, 0679ms total)
T264C 000:940 JLINK_WriteReg(R15 (PC), 0x2000007C)  returns 0x00 (0000ms, 0679ms total)
T264C 000:940 JLINK_WriteReg(XPSR, 0x01000000)  returns 0x00 (0000ms, 0679ms total)
T264C 000:940 JLINK_WriteReg(MSP, 0x20001000)  returns 0x00 (0000ms, 0679ms total)
T264C 000:940 JLINK_WriteReg(PSP, 0x20001000)  returns 0x00 (0000ms, 0679ms total)
T264C 000:940 JLINK_WriteReg(CFBP, 0x00000000)  returns 0x00 (0000ms, 0679ms total)
T264C 000:940 JLINK_SetBPEx(Addr = 0x20000000, Type = 0xFFFFFFF2)  returns 0x00000002 (0000ms, 0679ms total)
T264C 000:940 JLINK_Go() (0002ms, 0681ms total)
T264C 000:942 JLINK_IsHalted()  returns FALSE (0001ms, 0682ms total)
T264C 001:007 JLINK_IsHalted() -- CPU_ReadMem(2 bytes @ 0x20000000)  returns TRUE (0004ms, 0685ms total)
T264C 001:011 JLINK_ReadReg(R15 (PC))  returns 0x20000000 (0000ms, 0681ms total)
T264C 001:011 JLINK_ClrBPEx(BPHandle = 0x00000002)  returns 0x00 (0000ms, 0681ms total)
T264C 001:011 JLINK_ReadReg(R0)  returns 0x00000000 (0000ms, 0681ms total)
T264C 001:065 JLINK_WriteReg(R0, 0x00000001)  returns 0x00 (0000ms, 0681ms total)
T264C 001:065 JLINK_WriteReg(R1, 0x00B71B00)  returns 0x00 (0000ms, 0681ms total)
T264C 001:065 JLINK_WriteReg(R2, 0x00000001)  returns 0x00 (0000ms, 0681ms total)
T264C 001:065 JLINK_WriteReg(R3, 0x00000000)  returns 0x00 (0000ms, 0681ms total)
T264C 001:065 JLINK_WriteReg(R4, 0x00000000)  returns 0x00 (0000ms, 0681ms total)
T264C 001:065 JLINK_WriteReg(R5, 0x00000000)  returns 0x00 (0000ms, 0681ms total)
T264C 001:065 JLINK_WriteReg(R6, 0x00000000)  returns 0x00 (0000ms, 0681ms total)
T264C 001:065 JLINK_WriteReg(R7, 0x00000000)  returns 0x00 (0000ms, 0681ms total)
T264C 001:065 JLINK_WriteReg(R8, 0x00000000)  returns 0x00 (0000ms, 0681ms total)
T264C 001:065 JLINK_WriteReg(R9, 0x20000160)  returns 0x00 (0001ms, 0682ms total)
T264C 001:066 JLINK_WriteReg(R10, 0x00000000)  returns 0x00 (0000ms, 0682ms total)
T264C 001:066 JLINK_WriteReg(R11, 0x00000000)  returns 0x00 (0000ms, 0682ms total)
T264C 001:066 JLINK_WriteReg(R12, 0x00000000)  returns 0x00 (0000ms, 0682ms total)
T264C 001:066 JLINK_WriteReg(R13 (SP), 0x20001000)  returns 0x00 (0000ms, 0682ms total)
T264C 001:066 JLINK_WriteReg(R14, 0x20000001)  returns 0x00 (0000ms, 0682ms total)
T264C 001:066 JLINK_WriteReg(R15 (PC), 0x2000006A)  returns 0x00 (0000ms, 0682ms total)
T264C 001:066 JLINK_WriteReg(XPSR, 0x01000000)  returns 0x00 (0000ms, 0682ms total)
T264C 001:066 JLINK_WriteReg(MSP, 0x20001000)  returns 0x00 (0000ms, 0682ms total)
T264C 001:066 JLINK_WriteReg(PSP, 0x20001000)  returns 0x00 (0000ms, 0682ms total)
T264C 001:066 JLINK_WriteReg(CFBP, 0x00000000)  returns 0x00 (0000ms, 0682ms total)
T264C 001:066 JLINK_SetBPEx(Addr = 0x20000000, Type = 0xFFFFFFF2)  returns 0x00000003 (0000ms, 0682ms total)
T264C 001:066 JLINK_Go() (0001ms, 0683ms total)
T264C 001:067 JLINK_IsHalted() -- CPU_ReadMem(2 bytes @ 0x20000000)  returns TRUE (0004ms, 0687ms total)
T264C 001:071 JLINK_ReadReg(R15 (PC))  returns 0x20000000 (0000ms, 0683ms total)
T264C 001:071 JLINK_ClrBPEx(BPHandle = 0x00000003)  returns 0x00 (0000ms, 0683ms total)
T264C 001:071 JLINK_ReadReg(R0)  returns 0x00000000 (0000ms, 0683ms total)
T264C 001:082 JLINK_WriteMem(0x20000000, 0x0164 Bytes, ...) - Data: 00 BE 0A E0 0D 78 2D 06 68 40 08 24 40 00 00 D3 ... -- CPU_WriteMem(356 bytes @ 0x20000000)  returns 0x164 (0002ms, 0685ms total)
T264C 001:084 JLINK_WriteReg(R0, 0x08000000)  returns 0x00 (0000ms, 0685ms total)
T264C 001:084 JLINK_WriteReg(R1, 0x00B71B00)  returns 0x00 (0000ms, 0685ms total)
T264C 001:085 JLINK_WriteReg(R2, 0x00000002)  returns 0x00 (0000ms, 0686ms total)
T264C 001:085 JLINK_WriteReg(R3, 0x00000000)  returns 0x00 (0000ms, 0686ms total)
T264C 001:085 JLINK_WriteReg(R4, 0x00000000)  returns 0x00 (0000ms, 0686ms total)
T264C 001:085 JLINK_WriteReg(R5, 0x00000000)  returns 0x00 (0000ms, 0686ms total)
T264C 001:085 JLINK_WriteReg(R6, 0x00000000)  returns 0x00 (0000ms, 0686ms total)
T264C 001:085 JLINK_WriteReg(R7, 0x00000000)  returns 0x00 (0000ms, 0686ms total)
T264C 001:124 JLINK_WriteReg(R8, 0x00000000)  returns 0x00 (0000ms, 0725ms total)
T264C 001:124 JLINK_WriteReg(R9, 0x20000160)  returns 0x00 (0000ms, 0725ms total)
T264C 001:124 JLINK_WriteReg(R10, 0x00000000)  returns 0x00 (0000ms, 0725ms total)
T264C 001:124 JLINK_WriteReg(R11, 0x00000000)  returns 0x00 (0000ms, 0725ms total)
T264C 001:124 JLINK_WriteReg(R12, 0x00000000)  returns 0x00 (0000ms, 0725ms total)
T264C 001:124 JLINK_WriteReg(R13 (SP), 0x20001000)  returns 0x00 (0000ms, 0725ms total)
T264C 001:124 JLINK_WriteReg(R14, 0x20000001)  returns 0x00 (0000ms, 0725ms total)
T264C 001:124 JLINK_WriteReg(R15 (PC), 0x20000038)  returns 0x00 (0000ms, 0725ms total)
T264C 001:124 JLINK_WriteReg(XPSR, 0x01000000)  returns 0x00 (0000ms, 0725ms total)
T264C 001:124 JLINK_WriteReg(MSP, 0x20001000)  returns 0x00 (0000ms, 0725ms total)
T264C 001:124 JLINK_WriteReg(PSP, 0x20001000)  returns 0x00 (0000ms, 0725ms total)
T264C 001:124 JLINK_WriteReg(CFBP, 0x00000000)  returns 0x00 (0000ms, 0725ms total)
T264C 001:124 JLINK_SetBPEx(Addr = 0x20000000, Type = 0xFFFFFFF2) -- CPU_ReadMem(2 bytes @ 0x20000000)  returns 0x00000004 (0000ms, 0725ms total)
T264C 001:124 JLINK_Go() -- CPU_WriteMem(2 bytes @ 0x20000000) (0004ms, 0729ms total)
T264C 001:128 JLINK_IsHalted() -- CPU_ReadMem(2 bytes @ 0x20000000)  returns TRUE (0003ms, 0732ms total)
T264C 001:131 JLINK_ReadReg(R15 (PC))  returns 0x20000000 (0000ms, 0729ms total)
T264C 001:131 JLINK_ClrBPEx(BPHandle = 0x00000004)  returns 0x00 (0000ms, 0729ms total)
T264C 001:131 JLINK_ReadReg(R0)  returns 0x00000000 (0000ms, 0729ms total)
T264C 001:132 JLINK_WriteMem(0x20000164, 0x0400 Bytes, ...) - Data: 58 06 00 20 01 01 00 08 25 0D 00 08 DD 0B 00 08 ... -- CPU_WriteMem(1024 bytes @ 0x20000164)  returns 0x400 (0008ms, 0737ms total)
T264C 001:140 JLINK_WriteReg(R0, 0x08000000)  returns 0x00 (0000ms, 0737ms total)
T264C 001:140 JLINK_WriteReg(R1, 0x00000400)  returns 0x00 (0000ms, 0737ms total)
T264C 001:140 JLINK_WriteReg(R2, 0x20000164)  returns 0x00 (0000ms, 0737ms total)
T264C 001:140 JLINK_WriteReg(R3, 0x00000000)  returns 0x00 (0000ms, 0737ms total)
T264C 001:140 JLINK_WriteReg(R4, 0x00000000)  returns 0x00 (0000ms, 0737ms total)
T264C 001:140 JLINK_WriteReg(R5, 0x00000000)  returns 0x00 (0000ms, 0737ms total)
T264C 001:140 JLINK_WriteReg(R6, 0x00000000)  returns 0x00 (0000ms, 0737ms total)
T264C 001:140 JLINK_WriteReg(R7, 0x00000000)  returns 0x00 (0000ms, 0737ms total)
T264C 001:140 JLINK_WriteReg(R8, 0x00000000)  returns 0x00 (0000ms, 0737ms total)
T264C 001:140 JLINK_WriteReg(R9, 0x20000160)  returns 0x00 (0000ms, 0737ms total)
T264C 001:140 JLINK_WriteReg(R10, 0x00000000)  returns 0x00 (0000ms, 0737ms total)
T264C 001:140 JLINK_WriteReg(R11, 0x00000000)  returns 0x00 (0000ms, 0737ms total)
T264C 001:140 JLINK_WriteReg(R12, 0x00000000)  returns 0x00 (0000ms, 0737ms total)
T264C 001:140 JLINK_WriteReg(R13 (SP), 0x20001000)  returns 0x00 (0000ms, 0737ms total)
T264C 001:140 JLINK_WriteReg(R14, 0x20000001)  returns 0x00 (0000ms, 0737ms total)
T264C 001:140 JLINK_WriteReg(R15 (PC), 0x200000F4)  returns 0x00 (0000ms, 0737ms total)
T264C 001:140 JLINK_WriteReg(XPSR, 0x01000000)  returns 0x00 (0000ms, 0737ms total)
T264C 001:140 JLINK_WriteReg(MSP, 0x20001000)  returns 0x00 (0000ms, 0737ms total)
T264C 001:140 JLINK_WriteReg(PSP, 0x20001000)  returns 0x00 (0000ms, 0737ms total)
T264C 001:140 JLINK_WriteReg(CFBP, 0x00000000)  returns 0x00 (0000ms, 0737ms total)
T264C 001:140 JLINK_SetBPEx(Addr = 0x20000000, Type = 0xFFFFFFF2)  returns 0x00000005 (0000ms, 0737ms total)
T264C 001:140 JLINK_Go() (0002ms, 0739ms total)
T264C 001:142 JLINK_IsHalted()  returns FALSE (0001ms, 0740ms total)
T264C 001:169 JLINK_IsHalted()  returns FALSE (0000ms, 0739ms total)
T264C 001:171 JLINK_IsHalted()  returns FALSE (0000ms, 0739ms total)
T264C 001:173 JLINK_IsHalted() -- CPU_ReadMem(2 bytes @ 0x20000000)  returns TRUE (0004ms, 0743ms total)
T264C 001:177 JLINK_ReadReg(R15 (PC))  returns 0x20000000 (0000ms, 0739ms total)
T264C 001:178 JLINK_ClrBPEx(BPHandle = 0x00000005)  returns 0x00 (0000ms, 0740ms total)
T264C 001:178 JLINK_ReadReg(R0)  returns 0x00000000 (0000ms, 0740ms total)
T264C 001:178 JLINK_WriteMem(0x20000164, 0x0400 Bytes, ...) - Data: 4C EA 01 0C 49 08 4F EA 30 00 92 18 5B 41 50 EA ... -- CPU_WriteMem(1024 bytes @ 0x20000164)  returns 0x400 (0009ms, 0749ms total)
T264C 001:187 JLINK_WriteReg(R0, 0x08000400)  returns 0x00 (0000ms, 0749ms total)
T264C 001:187 JLINK_WriteReg(R1, 0x00000400)  returns 0x00 (0000ms, 0749ms total)
T264C 001:187 JLINK_WriteReg(R2, 0x20000164)  returns 0x00 (0000ms, 0749ms total)
T264C 001:187 JLINK_WriteReg(R3, 0x00000000)  returns 0x00 (0000ms, 0749ms total)
T264C 001:187 JLINK_WriteReg(R4, 0x00000000)  returns 0x00 (0000ms, 0749ms total)
T264C 001:187 JLINK_WriteReg(R5, 0x00000000)  returns 0x00 (0000ms, 0749ms total)
T264C 001:187 JLINK_WriteReg(R6, 0x00000000)  returns 0x00 (0000ms, 0749ms total)
T264C 001:187 JLINK_WriteReg(R7, 0x00000000)  returns 0x00 (0000ms, 0749ms total)
T264C 001:187 JLINK_WriteReg(R8, 0x00000000)  returns 0x00 (0000ms, 0749ms total)
T264C 001:187 JLINK_WriteReg(R9, 0x20000160)  returns 0x00 (0000ms, 0749ms total)
T264C 001:187 JLINK_WriteReg(R10, 0x00000000)  returns 0x00 (0000ms, 0749ms total)
T264C 001:187 JLINK_WriteReg(R11, 0x00000000)  returns 0x00 (0000ms, 0749ms total)
T264C 001:187 JLINK_WriteReg(R12, 0x00000000)  returns 0x00 (0000ms, 0749ms total)
T264C 001:187 JLINK_WriteReg(R13 (SP), 0x20001000)  returns 0x00 (0000ms, 0749ms total)
T264C 001:187 JLINK_WriteReg(R14, 0x20000001)  returns 0x00 (0000ms, 0749ms total)
T264C 001:187 JLINK_WriteReg(R15 (PC), 0x200000F4)  returns 0x00 (0000ms, 0749ms total)
T264C 001:187 JLINK_WriteReg(XPSR, 0x01000000)  returns 0x00 (0000ms, 0749ms total)
T264C 001:187 JLINK_WriteReg(MSP, 0x20001000)  returns 0x00 (0000ms, 0749ms total)
T264C 001:187 JLINK_WriteReg(PSP, 0x20001000)  returns 0x00 (0000ms, 0749ms total)
T264C 001:187 JLINK_WriteReg(CFBP, 0x00000000)  returns 0x00 (0000ms, 0749ms total)
T264C 001:187 JLINK_SetBPEx(Addr = 0x20000000, Type = 0xFFFFFFF2)  returns 0x00000006 (0000ms, 0749ms total)
T264C 001:187 JLINK_Go() (0002ms, 0751ms total)
T264C 001:189 JLINK_IsHalted()  returns FALSE (0000ms, 0751ms total)
T264C 001:194 JLINK_IsHalted()  returns FALSE (0000ms, 0751ms total)
T264C 001:196 JLINK_IsHalted()  returns FALSE (0000ms, 0751ms total)
T264C 001:198 JLINK_IsHalted()  returns FALSE (0000ms, 0751ms total)
T264C 001:207 JLINK_IsHalted()  returns FALSE (0000ms, 0751ms total)
T264C 001:209 JLINK_IsHalted()  returns FALSE (0000ms, 0751ms total)
T264C 001:211 JLINK_IsHalted()  returns FALSE (0000ms, 0751ms total)
T264C 001:212 JLINK_IsHalted()  returns FALSE (0000ms, 0751ms total)
T264C 001:215 JLINK_IsHalted()  returns FALSE (0000ms, 0751ms total)
T264C 001:217 JLINK_IsHalted()  returns FALSE (0000ms, 0751ms total)
T264C 001:221 JLINK_IsHalted() -- CPU_ReadMem(2 bytes @ 0x20000000)  returns TRUE (0004ms, 0755ms total)
T264C 001:225 JLINK_ReadReg(R15 (PC))  returns 0x20000000 (0000ms, 0751ms total)
T264C 001:225 JLINK_ClrBPEx(BPHandle = 0x00000006)  returns 0x00 (0000ms, 0751ms total)
T264C 001:225 JLINK_ReadReg(R0)  returns 0x00000000 (0000ms, 0751ms total)
T264C 001:226 JLINK_WriteMem(0x20000164, 0x0400 Bytes, ...) - Data: 01 20 02 49 08 60 30 46 BD E8 F8 83 88 01 21 42 ... -- CPU_WriteMem(1024 bytes @ 0x20000164)  returns 0x400 (0008ms, 0759ms total)
T264C 001:234 JLINK_WriteReg(R0, 0x08000800)  returns 0x00 (0000ms, 0759ms total)
T264C 001:234 JLINK_WriteReg(R1, 0x00000400)  returns 0x00 (0000ms, 0759ms total)
T264C 001:234 JLINK_WriteReg(R2, 0x20000164)  returns 0x00 (0000ms, 0759ms total)
T264C 001:234 JLINK_WriteReg(R3, 0x00000000)  returns 0x00 (0000ms, 0759ms total)
T264C 001:234 JLINK_WriteReg(R4, 0x00000000)  returns 0x00 (0000ms, 0759ms total)
T264C 001:234 JLINK_WriteReg(R5, 0x00000000)  returns 0x00 (0000ms, 0759ms total)
T264C 001:234 JLINK_WriteReg(R6, 0x00000000)  returns 0x00 (0000ms, 0759ms total)
T264C 001:234 JLINK_WriteReg(R7, 0x00000000)  returns 0x00 (0000ms, 0759ms total)
T264C 001:234 JLINK_WriteReg(R8, 0x00000000)  returns 0x00 (0000ms, 0759ms total)
T264C 001:234 JLINK_WriteReg(R9, 0x20000160)  returns 0x00 (0000ms, 0759ms total)
T264C 001:234 JLINK_WriteReg(R10, 0x00000000)  returns 0x00 (0000ms, 0759ms total)
T264C 001:234 JLINK_WriteReg(R11, 0x00000000)  returns 0x00 (0000ms, 0759ms total)
T264C 001:234 JLINK_WriteReg(R12, 0x00000000)  returns 0x00 (0000ms, 0759ms total)
T264C 001:234 JLINK_WriteReg(R13 (SP), 0x20001000)  returns 0x00 (0000ms, 0759ms total)
T264C 001:234 JLINK_WriteReg(R14, 0x20000001)  returns 0x00 (0000ms, 0759ms total)
T264C 001:234 JLINK_WriteReg(R15 (PC), 0x200000F4)  returns 0x00 (0000ms, 0759ms total)
T264C 001:234 JLINK_WriteReg(XPSR, 0x01000000)  returns 0x00 (0000ms, 0759ms total)
T264C 001:234 JLINK_WriteReg(MSP, 0x20001000)  returns 0x00 (0000ms, 0759ms total)
T264C 001:234 JLINK_WriteReg(PSP, 0x20001000)  returns 0x00 (0000ms, 0759ms total)
T264C 001:234 JLINK_WriteReg(CFBP, 0x00000000)  returns 0x00 (0000ms, 0759ms total)
T264C 001:234 JLINK_SetBPEx(Addr = 0x20000000, Type = 0xFFFFFFF2)  returns 0x00000007 (0000ms, 0759ms total)
T264C 001:235 JLINK_Go() (0002ms, 0762ms total)
T264C 001:237 JLINK_IsHalted()  returns FALSE (0000ms, 0762ms total)
T264C 001:244 JLINK_IsHalted()  returns FALSE (0000ms, 0762ms total)
T264C 001:246 JLINK_IsHalted()  returns FALSE (0000ms, 0762ms total)
T264C 001:257 JLINK_IsHalted()  returns FALSE (0001ms, 0763ms total)
T264C 001:259 JLINK_IsHalted()  returns FALSE (0000ms, 0762ms total)
T264C 001:261 JLINK_IsHalted()  returns FALSE (0000ms, 0762ms total)
T264C 001:263 JLINK_IsHalted()  returns FALSE (0000ms, 0762ms total)
T264C 001:266 JLINK_IsHalted()  returns FALSE (0000ms, 0762ms total)
T264C 001:268 JLINK_IsHalted() -- CPU_ReadMem(2 bytes @ 0x20000000)  returns TRUE (0005ms, 0767ms total)
T264C 001:273 JLINK_ReadReg(R15 (PC))  returns 0x20000000 (0000ms, 0762ms total)
T264C 001:273 JLINK_ClrBPEx(BPHandle = 0x00000007)  returns 0x00 (0000ms, 0762ms total)
T264C 001:273 JLINK_ReadReg(R0)  returns 0x00000000 (0000ms, 0762ms total)
T264C 001:274 JLINK_WriteMem(0x20000164, 0x0400 Bytes, ...) - Data: 01 48 FF F7 17 FF 08 BD 00 0C 01 40 2D E9 F0 41 ... -- CPU_WriteMem(1024 bytes @ 0x20000164)  returns 0x400 (0008ms, 0770ms total)
T264C 001:282 JLINK_WriteReg(R0, 0x08000C00)  returns 0x00 (0000ms, 0770ms total)
T264C 001:282 JLINK_WriteReg(R1, 0x00000400)  returns 0x00 (0000ms, 0770ms total)
T264C 001:282 JLINK_WriteReg(R2, 0x20000164)  returns 0x00 (0000ms, 0770ms total)
T264C 001:282 JLINK_WriteReg(R3, 0x00000000)  returns 0x00 (0000ms, 0770ms total)
T264C 001:282 JLINK_WriteReg(R4, 0x00000000)  returns 0x00 (0000ms, 0770ms total)
T264C 001:282 JLINK_WriteReg(R5, 0x00000000)  returns 0x00 (0000ms, 0770ms total)
T264C 001:282 JLINK_WriteReg(R6, 0x00000000)  returns 0x00 (0000ms, 0770ms total)
T264C 001:282 JLINK_WriteReg(R7, 0x00000000)  returns 0x00 (0000ms, 0770ms total)
T264C 001:282 JLINK_WriteReg(R8, 0x00000000)  returns 0x00 (0000ms, 0770ms total)
T264C 001:282 JLINK_WriteReg(R9, 0x20000160)  returns 0x00 (0000ms, 0770ms total)
T264C 001:282 JLINK_WriteReg(R10, 0x00000000)  returns 0x00 (0000ms, 0770ms total)
T264C 001:282 JLINK_WriteReg(R11, 0x00000000)  returns 0x00 (0000ms, 0770ms total)
T264C 001:282 JLINK_WriteReg(R12, 0x00000000)  returns 0x00 (0000ms, 0770ms total)
T264C 001:282 JLINK_WriteReg(R13 (SP), 0x20001000)  returns 0x00 (0000ms, 0770ms total)
T264C 001:282 JLINK_WriteReg(R14, 0x20000001)  returns 0x00 (0000ms, 0770ms total)
T264C 001:282 JLINK_WriteReg(R15 (PC), 0x200000F4)  returns 0x00 (0000ms, 0770ms total)
T264C 001:282 JLINK_WriteReg(XPSR, 0x01000000)  returns 0x00 (0000ms, 0770ms total)
T264C 001:282 JLINK_WriteReg(MSP, 0x20001000)  returns 0x00 (0000ms, 0770ms total)
T264C 001:282 JLINK_WriteReg(PSP, 0x20001000)  returns 0x00 (0000ms, 0770ms total)
T264C 001:282 JLINK_WriteReg(CFBP, 0x00000000)  returns 0x00 (0000ms, 0770ms total)
T264C 001:282 JLINK_SetBPEx(Addr = 0x20000000, Type = 0xFFFFFFF2)  returns 0x00000008 (0000ms, 0770ms total)
T264C 001:282 JLINK_Go() (0002ms, 0772ms total)
T264C 001:284 JLINK_IsHalted()  returns FALSE (0001ms, 0773ms total)
T264C 001:287 JLINK_IsHalted()  returns FALSE (0000ms, 0772ms total)
T264C 001:289 JLINK_IsHalted()  returns FALSE (0000ms, 0772ms total)
T264C 001:291 JLINK_IsHalted()  returns FALSE (0000ms, 0772ms total)
T264C 001:299 JLINK_IsHalted()  returns FALSE (0000ms, 0772ms total)
T264C 001:301 JLINK_IsHalted()  returns FALSE (0001ms, 0773ms total)
T264C 001:303 JLINK_IsHalted()  returns FALSE (0000ms, 0772ms total)
T264C 001:305 JLINK_IsHalted()  returns FALSE (0000ms, 0772ms total)
T264C 001:307 JLINK_IsHalted()  returns FALSE (0000ms, 0772ms total)
T264C 001:309 JLINK_IsHalted()  returns FALSE (0000ms, 0772ms total)
T264C 001:311 JLINK_IsHalted()  returns FALSE (0000ms, 0772ms total)
T264C 001:313 JLINK_IsHalted()  returns FALSE (0000ms, 0772ms total)
T264C 001:316 JLINK_IsHalted() -- CPU_ReadMem(2 bytes @ 0x20000000)  returns TRUE (0004ms, 0776ms total)
T264C 001:320 JLINK_ReadReg(R15 (PC))  returns 0x20000000 (0000ms, 0772ms total)
T264C 001:320 JLINK_ClrBPEx(BPHandle = 0x00000008)  returns 0x00 (0000ms, 0772ms total)
T264C 001:320 JLINK_ReadReg(R0)  returns 0x00000000 (0000ms, 0772ms total)
T264C 001:321 JLINK_WriteMem(0x20000164, 0x0400 Bytes, ...) - Data: 1F 00 88 60 FF F7 35 FF 4F F0 00 60 04 49 08 60 ... -- CPU_WriteMem(1024 bytes @ 0x20000164)  returns 0x400 (0008ms, 0780ms total)
T264C 001:329 JLINK_WriteReg(R0, 0x08001000)  returns 0x00 (0000ms, 0780ms total)
T264C 001:329 JLINK_WriteReg(R1, 0x00000400)  returns 0x00 (0000ms, 0780ms total)
T264C 001:329 JLINK_WriteReg(R2, 0x20000164)  returns 0x00 (0000ms, 0780ms total)
T264C 001:329 JLINK_WriteReg(R3, 0x00000000)  returns 0x00 (0000ms, 0780ms total)
T264C 001:329 JLINK_WriteReg(R4, 0x00000000)  returns 0x00 (0000ms, 0780ms total)
T264C 001:329 JLINK_WriteReg(R5, 0x00000000)  returns 0x00 (0000ms, 0780ms total)
T264C 001:329 JLINK_WriteReg(R6, 0x00000000)  returns 0x00 (0000ms, 0780ms total)
T264C 001:329 JLINK_WriteReg(R7, 0x00000000)  returns 0x00 (0000ms, 0780ms total)
T264C 001:329 JLINK_WriteReg(R8, 0x00000000)  returns 0x00 (0000ms, 0780ms total)
T264C 001:329 JLINK_WriteReg(R9, 0x20000160)  returns 0x00 (0000ms, 0780ms total)
T264C 001:329 JLINK_WriteReg(R10, 0x00000000)  returns 0x00 (0000ms, 0780ms total)
T264C 001:329 JLINK_WriteReg(R11, 0x00000000)  returns 0x00 (0000ms, 0780ms total)
T264C 001:329 JLINK_WriteReg(R12, 0x00000000)  returns 0x00 (0000ms, 0780ms total)
T264C 001:329 JLINK_WriteReg(R13 (SP), 0x20001000)  returns 0x00 (0000ms, 0780ms total)
T264C 001:329 JLINK_WriteReg(R14, 0x20000001)  returns 0x00 (0000ms, 0780ms total)
T264C 001:329 JLINK_WriteReg(R15 (PC), 0x200000F4)  returns 0x00 (0000ms, 0780ms total)
T264C 001:329 JLINK_WriteReg(XPSR, 0x01000000)  returns 0x00 (0000ms, 0780ms total)
T264C 001:329 JLINK_WriteReg(MSP, 0x20001000)  returns 0x00 (0000ms, 0780ms total)
T264C 001:329 JLINK_WriteReg(PSP, 0x20001000)  returns 0x00 (0000ms, 0780ms total)
T264C 001:329 JLINK_WriteReg(CFBP, 0x00000000)  returns 0x00 (0000ms, 0780ms total)
T264C 001:329 JLINK_SetBPEx(Addr = 0x20000000, Type = 0xFFFFFFF2)  returns 0x00000009 (0000ms, 0780ms total)
T264C 001:329 JLINK_Go() (0003ms, 0783ms total)
T264C 001:332 JLINK_IsHalted()  returns FALSE (0001ms, 0784ms total)
T264C 001:337 JLINK_IsHalted()  returns FALSE (0001ms, 0784ms total)
T264C 001:339 JLINK_IsHalted()  returns FALSE (0000ms, 0783ms total)
T264C 001:341 JLINK_IsHalted()  returns FALSE (0000ms, 0783ms total)
T264C 001:352 JLINK_IsHalted()  returns FALSE (0000ms, 0783ms total)
T264C 001:354 JLINK_IsHalted()  returns FALSE (0000ms, 0783ms total)
T264C 001:356 JLINK_IsHalted()  returns FALSE (0000ms, 0783ms total)
T264C 001:362 JLINK_IsHalted() -- CPU_ReadMem(2 bytes @ 0x20000000)  returns TRUE (0004ms, 0787ms total)
T264C 001:366 JLINK_ReadReg(R15 (PC))  returns 0x20000000 (0000ms, 0783ms total)
T264C 001:366 JLINK_ClrBPEx(BPHandle = 0x00000009)  returns 0x00 (0000ms, 0783ms total)
T264C 001:366 JLINK_ReadReg(R0)  returns 0x00000000 (0000ms, 0783ms total)
T264C 001:367 JLINK_WriteMem(0x20000164, 0x0400 Bytes, ...) - Data: 02 46 00 20 00 23 00 24 15 8A 05 EA 01 03 95 89 ... -- CPU_WriteMem(1024 bytes @ 0x20000164)  returns 0x400 (0008ms, 0791ms total)
T264C 001:375 JLINK_WriteReg(R0, 0x08001400)  returns 0x00 (0000ms, 0791ms total)
T264C 001:375 JLINK_WriteReg(R1, 0x00000400)  returns 0x00 (0000ms, 0791ms total)
T264C 001:375 JLINK_WriteReg(R2, 0x20000164)  returns 0x00 (0000ms, 0791ms total)
T264C 001:375 JLINK_WriteReg(R3, 0x00000000)  returns 0x00 (0000ms, 0791ms total)
T264C 001:375 JLINK_WriteReg(R4, 0x00000000)  returns 0x00 (0000ms, 0791ms total)
T264C 001:375 JLINK_WriteReg(R5, 0x00000000)  returns 0x00 (0000ms, 0791ms total)
T264C 001:375 JLINK_WriteReg(R6, 0x00000000)  returns 0x00 (0000ms, 0791ms total)
T264C 001:375 JLINK_WriteReg(R7, 0x00000000)  returns 0x00 (0000ms, 0791ms total)
T264C 001:375 JLINK_WriteReg(R8, 0x00000000)  returns 0x00 (0000ms, 0791ms total)
T264C 001:375 JLINK_WriteReg(R9, 0x20000160)  returns 0x00 (0000ms, 0791ms total)
T264C 001:375 JLINK_WriteReg(R10, 0x00000000)  returns 0x00 (0000ms, 0791ms total)
T264C 001:375 JLINK_WriteReg(R11, 0x00000000)  returns 0x00 (0000ms, 0791ms total)
T264C 001:375 JLINK_WriteReg(R12, 0x00000000)  returns 0x00 (0000ms, 0791ms total)
T264C 001:375 JLINK_WriteReg(R13 (SP), 0x20001000)  returns 0x00 (0000ms, 0791ms total)
T264C 001:375 JLINK_WriteReg(R14, 0x20000001)  returns 0x00 (0000ms, 0791ms total)
T264C 001:375 JLINK_WriteReg(R15 (PC), 0x200000F4)  returns 0x00 (0000ms, 0791ms total)
T264C 001:375 JLINK_WriteReg(XPSR, 0x01000000)  returns 0x00 (0000ms, 0791ms total)
T264C 001:375 JLINK_WriteReg(MSP, 0x20001000)  returns 0x00 (0000ms, 0791ms total)
T264C 001:375 JLINK_WriteReg(PSP, 0x20001000)  returns 0x00 (0000ms, 0791ms total)
T264C 001:375 JLINK_WriteReg(CFBP, 0x00000000)  returns 0x00 (0000ms, 0791ms total)
T264C 001:375 JLINK_SetBPEx(Addr = 0x20000000, Type = 0xFFFFFFF2)  returns 0x0000000A (0000ms, 0791ms total)
T264C 001:375 JLINK_Go() (0003ms, 0794ms total)
T264C 001:378 JLINK_IsHalted()  returns FALSE (0000ms, 0794ms total)
T264C 001:382 JLINK_IsHalted()  returns FALSE (0000ms, 0794ms total)
T264C 001:384 JLINK_IsHalted()  returns FALSE (0000ms, 0794ms total)
T264C 001:386 JLINK_IsHalted()  returns FALSE (0000ms, 0794ms total)
T264C 001:395 JLINK_IsHalted()  returns FALSE (0000ms, 0794ms total)
T264C 001:397 JLINK_IsHalted()  returns FALSE (0000ms, 0794ms total)
T264C 001:399 JLINK_IsHalted()  returns FALSE (0000ms, 0794ms total)
T264C 001:401 JLINK_IsHalted()  returns FALSE (0001ms, 0795ms total)
T264C 001:403 JLINK_IsHalted()  returns FALSE (0000ms, 0794ms total)
T264C 001:405 JLINK_IsHalted()  returns FALSE (0000ms, 0794ms total)
T264C 001:407 JLINK_IsHalted()  returns FALSE (0000ms, 0794ms total)
T264C 001:409 JLINK_IsHalted() -- CPU_ReadMem(2 bytes @ 0x20000000)  returns TRUE (0004ms, 0798ms total)
T264C 001:413 JLINK_ReadReg(R15 (PC))  returns 0x20000000 (0000ms, 0794ms total)
T264C 001:413 JLINK_ClrBPEx(BPHandle = 0x0000000A)  returns 0x00 (0000ms, 0794ms total)
T264C 001:413 JLINK_ReadReg(R0)  returns 0x00000000 (0000ms, 0794ms total)
T264C 001:414 JLINK_WriteMem(0x20000164, 0x0400 Bytes, ...) - Data: 09 2A 16 D8 05 9A 44 F0 02 04 02 EB 82 02 03 EB ... -- CPU_WriteMem(1024 bytes @ 0x20000164)  returns 0x400 (0008ms, 0802ms total)
T264C 001:422 JLINK_WriteReg(R0, 0x08001800)  returns 0x00 (0000ms, 0802ms total)
T264C 001:422 JLINK_WriteReg(R1, 0x00000400)  returns 0x00 (0000ms, 0802ms total)
T264C 001:422 JLINK_WriteReg(R2, 0x20000164)  returns 0x00 (0000ms, 0802ms total)
T264C 001:422 JLINK_WriteReg(R3, 0x00000000)  returns 0x00 (0000ms, 0802ms total)
T264C 001:422 JLINK_WriteReg(R4, 0x00000000)  returns 0x00 (0000ms, 0802ms total)
T264C 001:422 JLINK_WriteReg(R5, 0x00000000)  returns 0x00 (0000ms, 0802ms total)
T264C 001:422 JLINK_WriteReg(R6, 0x00000000)  returns 0x00 (0000ms, 0802ms total)
T264C 001:422 JLINK_WriteReg(R7, 0x00000000)  returns 0x00 (0000ms, 0802ms total)
T264C 001:422 JLINK_WriteReg(R8, 0x00000000)  returns 0x00 (0000ms, 0802ms total)
T264C 001:422 JLINK_WriteReg(R9, 0x20000160)  returns 0x00 (0000ms, 0802ms total)
T264C 001:422 JLINK_WriteReg(R10, 0x00000000)  returns 0x00 (0000ms, 0802ms total)
T264C 001:422 JLINK_WriteReg(R11, 0x00000000)  returns 0x00 (0000ms, 0802ms total)
T264C 001:422 JLINK_WriteReg(R12, 0x00000000)  returns 0x00 (0000ms, 0802ms total)
T264C 001:422 JLINK_WriteReg(R13 (SP), 0x20001000)  returns 0x00 (0000ms, 0802ms total)
T264C 001:422 JLINK_WriteReg(R14, 0x20000001)  returns 0x00 (0000ms, 0802ms total)
T264C 001:422 JLINK_WriteReg(R15 (PC), 0x200000F4)  returns 0x00 (0000ms, 0802ms total)
T264C 001:422 JLINK_WriteReg(XPSR, 0x01000000)  returns 0x00 (0000ms, 0802ms total)
T264C 001:422 JLINK_WriteReg(MSP, 0x20001000)  returns 0x00 (0000ms, 0802ms total)
T264C 001:422 JLINK_WriteReg(PSP, 0x20001000)  returns 0x00 (0000ms, 0802ms total)
T264C 001:422 JLINK_WriteReg(CFBP, 0x00000000)  returns 0x00 (0000ms, 0802ms total)
T264C 001:422 JLINK_SetBPEx(Addr = 0x20000000, Type = 0xFFFFFFF2)  returns 0x0000000B (0000ms, 0802ms total)
T264C 001:422 JLINK_Go() (0003ms, 0805ms total)
T264C 001:425 JLINK_IsHalted()  returns FALSE (0000ms, 0805ms total)
T264C 001:428 JLINK_IsHalted()  returns FALSE (0000ms, 0805ms total)
T264C 001:430 JLINK_IsHalted()  returns FALSE (0000ms, 0805ms total)
T264C 001:432 JLINK_IsHalted()  returns FALSE (0000ms, 0805ms total)
T264C 001:434 JLINK_IsHalted()  returns FALSE (0000ms, 0805ms total)
T264C 001:442 JLINK_IsHalted()  returns FALSE (0001ms, 0806ms total)
T264C 001:444 JLINK_IsHalted()  returns FALSE (0000ms, 0805ms total)
T264C 001:446 JLINK_IsHalted()  returns FALSE (0001ms, 0806ms total)
T264C 001:448 JLINK_IsHalted()  returns FALSE (0000ms, 0805ms total)
T264C 001:450 JLINK_IsHalted()  returns FALSE (0000ms, 0805ms total)
T264C 001:457 JLINK_IsHalted() -- CPU_ReadMem(2 bytes @ 0x20000000)  returns TRUE (0005ms, 0810ms total)
T264C 001:462 JLINK_ReadReg(R15 (PC))  returns 0x20000000 (0000ms, 0805ms total)
T264C 001:462 JLINK_ClrBPEx(BPHandle = 0x0000000B)  returns 0x00 (0000ms, 0805ms total)
T264C 001:462 JLINK_ReadReg(R0)  returns 0x00000000 (0000ms, 0805ms total)
T264C 001:462 JLINK_WriteMem(0x20000164, 0x0400 Bytes, ...) - Data: 62 07 00 D4 06 27 09 F1 07 02 22 F0 07 0C FC E8 ... -- CPU_WriteMem(1024 bytes @ 0x20000164)  returns 0x400 (0008ms, 0813ms total)
T264C 001:470 JLINK_WriteReg(R0, 0x08001C00)  returns 0x00 (0000ms, 0813ms total)
T264C 001:470 JLINK_WriteReg(R1, 0x00000400)  returns 0x00 (0000ms, 0813ms total)
T264C 001:470 JLINK_WriteReg(R2, 0x20000164)  returns 0x00 (0000ms, 0813ms total)
T264C 001:470 JLINK_WriteReg(R3, 0x00000000)  returns 0x00 (0000ms, 0813ms total)
T264C 001:470 JLINK_WriteReg(R4, 0x00000000)  returns 0x00 (0000ms, 0813ms total)
T264C 001:470 JLINK_WriteReg(R5, 0x00000000)  returns 0x00 (0000ms, 0813ms total)
T264C 001:470 JLINK_WriteReg(R6, 0x00000000)  returns 0x00 (0000ms, 0813ms total)
T264C 001:470 JLINK_WriteReg(R7, 0x00000000)  returns 0x00 (0000ms, 0813ms total)
T264C 001:470 JLINK_WriteReg(R8, 0x00000000)  returns 0x00 (0000ms, 0813ms total)
T264C 001:470 JLINK_WriteReg(R9, 0x20000160)  returns 0x00 (0000ms, 0813ms total)
T264C 001:470 JLINK_WriteReg(R10, 0x00000000)  returns 0x00 (0000ms, 0813ms total)
T264C 001:470 JLINK_WriteReg(R11, 0x00000000)  returns 0x00 (0000ms, 0813ms total)
T264C 001:470 JLINK_WriteReg(R12, 0x00000000)  returns 0x00 (0000ms, 0813ms total)
T264C 001:470 JLINK_WriteReg(R13 (SP), 0x20001000)  returns 0x00 (0000ms, 0813ms total)
T264C 001:470 JLINK_WriteReg(R14, 0x20000001)  returns 0x00 (0000ms, 0813ms total)
T264C 001:470 JLINK_WriteReg(R15 (PC), 0x200000F4)  returns 0x00 (0000ms, 0813ms total)
T264C 001:470 JLINK_WriteReg(XPSR, 0x01000000)  returns 0x00 (0000ms, 0813ms total)
T264C 001:470 JLINK_WriteReg(MSP, 0x20001000)  returns 0x00 (0000ms, 0813ms total)
T264C 001:470 JLINK_WriteReg(PSP, 0x20001000)  returns 0x00 (0001ms, 0814ms total)
T264C 001:471 JLINK_WriteReg(CFBP, 0x00000000)  returns 0x00 (0000ms, 0814ms total)
T264C 001:471 JLINK_SetBPEx(Addr = 0x20000000, Type = 0xFFFFFFF2)  returns 0x0000000C (0000ms, 0814ms total)
T264C 001:471 JLINK_Go() (0002ms, 0816ms total)
T264C 001:473 JLINK_IsHalted()  returns FALSE (0000ms, 0816ms total)
T264C 001:479 JLINK_IsHalted()  returns FALSE (0000ms, 0816ms total)
T264C 001:481 JLINK_IsHalted()  returns FALSE (0000ms, 0816ms total)
T264C 001:489 JLINK_IsHalted()  returns FALSE (0001ms, 0817ms total)
T264C 001:492 JLINK_IsHalted()  returns FALSE (0000ms, 0816ms total)
T264C 001:494 JLINK_IsHalted()  returns FALSE (0000ms, 0816ms total)
T264C 001:495 JLINK_IsHalted()  returns FALSE (0000ms, 0816ms total)
T264C 001:498 JLINK_IsHalted()  returns FALSE (0000ms, 0816ms total)
T264C 001:500 JLINK_IsHalted()  returns FALSE (0000ms, 0816ms total)
T264C 001:502 JLINK_IsHalted()  returns FALSE (0000ms, 0816ms total)
T264C 001:504 JLINK_IsHalted() -- CPU_ReadMem(2 bytes @ 0x20000000)  returns TRUE (0004ms, 0820ms total)
T264C 001:508 JLINK_ReadReg(R15 (PC))  returns 0x20000000 (0000ms, 0816ms total)
T264C 001:508 JLINK_ClrBPEx(BPHandle = 0x0000000C)  returns 0x00 (0000ms, 0816ms total)
T264C 001:508 JLINK_ReadReg(R0)  returns 0x00000000 (0000ms, 0816ms total)
T264C 001:508 JLINK_WriteMem(0x20000164, 0x0400 Bytes, ...) - Data: 22 F0 01 02 4F F0 E0 23 1A 61 00 22 9A 61 70 47 ... -- CPU_WriteMem(1024 bytes @ 0x20000164)  returns 0x400 (0008ms, 0824ms total)
T264C 001:516 JLINK_WriteReg(R0, 0x08002000)  returns 0x00 (0000ms, 0824ms total)
T264C 001:516 JLINK_WriteReg(R1, 0x00000400)  returns 0x00 (0000ms, 0824ms total)
T264C 001:516 JLINK_WriteReg(R2, 0x20000164)  returns 0x00 (0000ms, 0824ms total)
T264C 001:516 JLINK_WriteReg(R3, 0x00000000)  returns 0x00 (0000ms, 0824ms total)
T264C 001:516 JLINK_WriteReg(R4, 0x00000000)  returns 0x00 (0000ms, 0824ms total)
T264C 001:516 JLINK_WriteReg(R5, 0x00000000)  returns 0x00 (0000ms, 0824ms total)
T264C 001:516 JLINK_WriteReg(R6, 0x00000000)  returns 0x00 (0000ms, 0824ms total)
T264C 001:516 JLINK_WriteReg(R7, 0x00000000)  returns 0x00 (0000ms, 0824ms total)
T264C 001:516 JLINK_WriteReg(R8, 0x00000000)  returns 0x00 (0000ms, 0824ms total)
T264C 001:516 JLINK_WriteReg(R9, 0x20000160)  returns 0x00 (0000ms, 0824ms total)
T264C 001:516 JLINK_WriteReg(R10, 0x00000000)  returns 0x00 (0000ms, 0824ms total)
T264C 001:516 JLINK_WriteReg(R11, 0x00000000)  returns 0x00 (0000ms, 0824ms total)
T264C 001:516 JLINK_WriteReg(R12, 0x00000000)  returns 0x00 (0000ms, 0824ms total)
T264C 001:516 JLINK_WriteReg(R13 (SP), 0x20001000)  returns 0x00 (0000ms, 0824ms total)
T264C 001:516 JLINK_WriteReg(R14, 0x20000001)  returns 0x00 (0000ms, 0824ms total)
T264C 001:516 JLINK_WriteReg(R15 (PC), 0x200000F4)  returns 0x00 (0000ms, 0824ms total)
T264C 001:516 JLINK_WriteReg(XPSR, 0x01000000)  returns 0x00 (0000ms, 0824ms total)
T264C 001:516 JLINK_WriteReg(MSP, 0x20001000)  returns 0x00 (0000ms, 0824ms total)
T264C 001:516 JLINK_WriteReg(PSP, 0x20001000)  returns 0x00 (0001ms, 0825ms total)
T264C 001:517 JLINK_WriteReg(CFBP, 0x00000000)  returns 0x00 (0000ms, 0825ms total)
T264C 001:517 JLINK_SetBPEx(Addr = 0x20000000, Type = 0xFFFFFFF2)  returns 0x0000000D (0000ms, 0825ms total)
T264C 001:517 JLINK_Go() (0001ms, 0826ms total)
T264C 001:518 JLINK_IsHalted()  returns FALSE (0001ms, 0827ms total)
T264C 001:522 JLINK_IsHalted()  returns FALSE (0000ms, 0826ms total)
T264C 001:524 JLINK_IsHalted()  returns FALSE (0000ms, 0826ms total)
T264C 001:526 JLINK_IsHalted()  returns FALSE (0000ms, 0826ms total)
T264C 001:528 JLINK_IsHalted()  returns FALSE (0000ms, 0826ms total)
T264C 001:530 JLINK_IsHalted()  returns FALSE (0000ms, 0826ms total)
T264C 001:538 JLINK_IsHalted()  returns FALSE (0000ms, 0826ms total)
T264C 001:540 JLINK_IsHalted()  returns FALSE (0001ms, 0827ms total)
T264C 001:542 JLINK_IsHalted()  returns FALSE (0000ms, 0826ms total)
T264C 001:544 JLINK_IsHalted()  returns FALSE (0000ms, 0826ms total)
T264C 001:549 JLINK_IsHalted()  returns FALSE (0000ms, 0826ms total)
T264C 001:551 JLINK_IsHalted() -- CPU_ReadMem(2 bytes @ 0x20000000)  returns TRUE (0004ms, 0830ms total)
T264C 001:555 JLINK_ReadReg(R15 (PC))  returns 0x20000000 (0000ms, 0826ms total)
T264C 001:555 JLINK_ClrBPEx(BPHandle = 0x0000000D)  returns 0x00 (0000ms, 0826ms total)
T264C 001:555 JLINK_ReadReg(R0)  returns 0x00000000 (0000ms, 0826ms total)
T264C 001:556 JLINK_WriteMem(0x20000164, 0x0400 Bytes, ...) - Data: 56 20 8D F8 1D 00 06 22 06 A9 95 20 FE F7 FE FB ... -- CPU_WriteMem(1024 bytes @ 0x20000164)  returns 0x400 (0009ms, 0835ms total)
T264C 001:565 JLINK_WriteReg(R0, 0x08002400)  returns 0x00 (0000ms, 0835ms total)
T264C 001:565 JLINK_WriteReg(R1, 0x00000400)  returns 0x00 (0000ms, 0835ms total)
T264C 001:565 JLINK_WriteReg(R2, 0x20000164)  returns 0x00 (0000ms, 0835ms total)
T264C 001:565 JLINK_WriteReg(R3, 0x00000000)  returns 0x00 (0000ms, 0835ms total)
T264C 001:565 JLINK_WriteReg(R4, 0x00000000)  returns 0x00 (0000ms, 0835ms total)
T264C 001:565 JLINK_WriteReg(R5, 0x00000000)  returns 0x00 (0000ms, 0835ms total)
T264C 001:565 JLINK_WriteReg(R6, 0x00000000)  returns 0x00 (0000ms, 0835ms total)
T264C 001:565 JLINK_WriteReg(R7, 0x00000000)  returns 0x00 (0000ms, 0835ms total)
T264C 001:565 JLINK_WriteReg(R8, 0x00000000)  returns 0x00 (0000ms, 0835ms total)
T264C 001:565 JLINK_WriteReg(R9, 0x20000160)  returns 0x00 (0000ms, 0835ms total)
T264C 001:565 JLINK_WriteReg(R10, 0x00000000)  returns 0x00 (0000ms, 0835ms total)
T264C 001:565 JLINK_WriteReg(R11, 0x00000000)  returns 0x00 (0000ms, 0835ms total)
T264C 001:565 JLINK_WriteReg(R12, 0x00000000)  returns 0x00 (0000ms, 0835ms total)
T264C 001:565 JLINK_WriteReg(R13 (SP), 0x20001000)  returns 0x00 (0000ms, 0835ms total)
T264C 001:565 JLINK_WriteReg(R14, 0x20000001)  returns 0x00 (0000ms, 0835ms total)
T264C 001:565 JLINK_WriteReg(R15 (PC), 0x200000F4)  returns 0x00 (0000ms, 0835ms total)
T264C 001:565 JLINK_WriteReg(XPSR, 0x01000000)  returns 0x00 (0000ms, 0835ms total)
T264C 001:565 JLINK_WriteReg(MSP, 0x20001000)  returns 0x00 (0000ms, 0835ms total)
T264C 001:565 JLINK_WriteReg(PSP, 0x20001000)  returns 0x00 (0000ms, 0835ms total)
T264C 001:565 JLINK_WriteReg(CFBP, 0x00000000)  returns 0x00 (0000ms, 0835ms total)
T264C 001:565 JLINK_SetBPEx(Addr = 0x20000000, Type = 0xFFFFFFF2)  returns 0x0000000E (0000ms, 0835ms total)
T264C 001:565 JLINK_Go() (0002ms, 0837ms total)
T264C 001:567 JLINK_IsHalted()  returns FALSE (0000ms, 0837ms total)
T264C 001:575 JLINK_IsHalted()  returns FALSE (0000ms, 0837ms total)
T264C 001:586 JLINK_IsHalted()  returns FALSE (0000ms, 0837ms total)
T264C 001:588 JLINK_IsHalted()  returns FALSE (0000ms, 0837ms total)
T264C 001:590 JLINK_IsHalted()  returns FALSE (0000ms, 0837ms total)
T264C 001:592 JLINK_IsHalted()  returns FALSE (0000ms, 0837ms total)
T264C 001:593 JLINK_IsHalted()  returns FALSE (0001ms, 0838ms total)
T264C 001:596 JLINK_IsHalted()  returns FALSE (0000ms, 0837ms total)
T264C 001:600 JLINK_IsHalted() -- CPU_ReadMem(2 bytes @ 0x20000000)  returns TRUE (0004ms, 0841ms total)
T264C 001:604 JLINK_ReadReg(R15 (PC))  returns 0x20000000 (0000ms, 0837ms total)
T264C 001:604 JLINK_ClrBPEx(BPHandle = 0x0000000E)  returns 0x00 (0000ms, 0837ms total)
T264C 001:604 JLINK_ReadReg(R0)  returns 0x00000000 (0000ms, 0837ms total)
T264C 001:605 JLINK_WriteReg(R0, 0x00000002)  returns 0x00 (0000ms, 0837ms total)
T264C 001:605 JLINK_WriteReg(R1, 0x00000400)  returns 0x00 (0000ms, 0837ms total)
T264C 001:605 JLINK_WriteReg(R2, 0x20000164)  returns 0x00 (0000ms, 0837ms total)
T264C 001:605 JLINK_WriteReg(R3, 0x00000000)  returns 0x00 (0000ms, 0837ms total)
T264C 001:605 JLINK_WriteReg(R4, 0x00000000)  returns 0x00 (0000ms, 0837ms total)
T264C 001:605 JLINK_WriteReg(R5, 0x00000000)  returns 0x00 (0000ms, 0837ms total)
T264C 001:605 JLINK_WriteReg(R6, 0x00000000)  returns 0x00 (0000ms, 0837ms total)
T264C 001:605 JLINK_WriteReg(R7, 0x00000000)  returns 0x00 (0000ms, 0837ms total)
T264C 001:605 JLINK_WriteReg(R8, 0x00000000)  returns 0x00 (0000ms, 0837ms total)
T264C 001:605 JLINK_WriteReg(R9, 0x20000160)  returns 0x00 (0000ms, 0837ms total)
T264C 001:605 JLINK_WriteReg(R10, 0x00000000)  returns 0x00 (0000ms, 0837ms total)
T264C 001:605 JLINK_WriteReg(R11, 0x00000000)  returns 0x00 (0000ms, 0837ms total)
T264C 001:605 JLINK_WriteReg(R12, 0x00000000)  returns 0x00 (0000ms, 0837ms total)
T264C 001:605 JLINK_WriteReg(R13 (SP), 0x20001000)  returns 0x00 (0000ms, 0837ms total)
T264C 001:606 JLINK_WriteReg(R14, 0x20000001)  returns 0x00 (0000ms, 0837ms total)
T264C 001:606 JLINK_WriteReg(R15 (PC), 0x2000006A)  returns 0x00 (0000ms, 0837ms total)
T264C 001:606 JLINK_WriteReg(XPSR, 0x01000000)  returns 0x00 (0000ms, 0837ms total)
T264C 001:606 JLINK_WriteReg(MSP, 0x20001000)  returns 0x00 (0000ms, 0837ms total)
T264C 001:606 JLINK_WriteReg(PSP, 0x20001000)  returns 0x00 (0000ms, 0837ms total)
T264C 001:606 JLINK_WriteReg(CFBP, 0x00000000)  returns 0x00 (0000ms, 0837ms total)
T264C 001:606 JLINK_SetBPEx(Addr = 0x20000000, Type = 0xFFFFFFF2)  returns 0x0000000F (0000ms, 0837ms total)
T264C 001:606 JLINK_Go() (0002ms, 0839ms total)
T264C 001:608 JLINK_IsHalted() -- CPU_ReadMem(2 bytes @ 0x20000000)  returns TRUE (0004ms, 0843ms total)
T264C 001:612 JLINK_ReadReg(R15 (PC))  returns 0x20000000 (0000ms, 0839ms total)
T264C 001:612 JLINK_ClrBPEx(BPHandle = 0x0000000F)  returns 0x00 (0000ms, 0839ms total)
T264C 001:612 JLINK_ReadReg(R0)  returns 0x00000000 (0000ms, 0839ms total)
